
T56A0 000:294 SEGGER J-Link V5.12e Log File (0001ms, 0265ms total)
T56A0 000:294 DLL Compiled: Apr 29 2016 15:03:58 (0001ms, 0265ms total)
T56A0 000:294 Logging started @ 2018-07-20 08:57 (0001ms, 0265ms total)
T56A0 000:295 JLINK_SetWarnOutHandler(...) (0000ms, 0265ms total)
T56A0 000:295 JLINK_OpenEx(...)
Firmware: J-Link ARM V8 compiled Nov 28 2014 13:44:46
Hardware: V8.00
Feature(s): RDI,FlashDL,FlashBP,JFlash,GDBFULL  returns O.K. (0263ms, 0528ms total)
T56A0 000:558 JLINK_SetErrorOutHandler(...) (0000ms, 0528ms total)
T56A0 000:558 JLINK_ExecCommand("ProjectFile = "C:\Users\14042\Desktop\ÏîÄ¿\collector\USER\JLinkSettings.ini"", ...)  returns 0x00 (0002ms, 0530ms total)
T56A0 000:560 JLINK_ExecCommand("Device = STM32F103C8", ...)Device "STM32F103C8" selected.  returns 0x00 (0001ms, 0531ms total)
T56A0 000:561 JLINK_ExecCommand("DisableConnectionTimeout", ...)  returns 0x01 (0000ms, 0531ms total)
T56A0 000:561 JLINK_GetHardwareVersion()  returns 0x13880 (0000ms, 0531ms total)
T56A0 000:561 JLINK_GetDLLVersion()  returns 51205 (0000ms, 0531ms total)
T56A0 000:561 JLINK_GetFirmwareString(...) (0000ms, 0531ms total)
T56A0 000:561 JLINK_GetDLLVersion()  returns 51205 (0000ms, 0531ms total)
T56A0 000:561 JLINK_GetCompileDateTime() (0000ms, 0531ms total)
T56A0 000:561 JLINK_GetFirmwareString(...) (0000ms, 0531ms total)
T56A0 000:561 JLINK_GetHardwareVersion()  returns 0x13880 (0000ms, 0531ms total)
T56A0 000:561 JLINK_TIF_Select(JLINKARM_TIF_SWD)  returns 0x00 (0000ms, 0531ms total)
T56A0 000:561 JLINK_SetSpeed(5000) (0001ms, 0532ms total)
T56A0 000:562 JLINK_GetId() >0x108 TIF>Found SWD-DP with ID 0x1BA01477 >0x0D TIF> >0x28 TIF> >0x0D TIF> >0x28 TIF> >0x0D TIF> >0x28 TIF> >0x0D TIF> >0x28 TIF> >0x0D TIF> >0x21 TIF> >0x0D TIF> >0x28 TIF> >0x0D TIF> >0x28 TIF> >0x0D TIF> >0x28 TIF> >0x0D TIF> >0x21 TIF> >0x0D TIF> >0x21 TIF> >0x0D TIF> >0x28 TIF> >0x0D TIF> >0x21 TIF> >0x0D TIF> >0x21 TIF> >0x0D TIF> >0x28 TIF> >0x0D TIF> >0x21 TIF> >0x0D TIF> >0x21 TIF> >0x0D TIF> >0x28 TIF> >0x0D TIF> >0x21 TIF> >0x0D TIF> >0x21 TIF> >0x0D TIF>
 >0x28 TIF> >0x0D TIF> >0x21 TIF> >0x0D TIF> >0x21 TIF> >0x0D TIF> >0x28 TIF> >0x0D TIF> >0x21 TIF> >0x0D TIF> >0x21 TIF> >0x108 TIF>Found SWD-DP with ID 0x1BA01477 >0x0D TIF> >0x28 TIF> >0x0D TIF> >0x28 TIF> >0x0D TIF> >0x28 TIF> >0x0D TIF> >0x28 TIF> >0x0D TIF> >0x21 TIF> >0x0D TIF> >0x28 TIF> >0x0D TIF> >0x28 TIF> >0x0D TIF> >0x21 TIF> >0x0D TIF> >0x21 TIF> >0x0D TIF> >0x21 TIF> >0x0D TIF> >0x28 TIF> >0x0D TIF> >0x28 TIF> >0x0D TIF> >0x28 TIF> >0x0D TIF> >0x21 TIF> >0x0D TIF> >0x21 TIF> >0x0D TIF>
 >0x28 TIF> >0x0D TIF> >0x21 TIF> >0x0D TIF> >0x21 TIF>Found Cortex-M3 r1p1, Little endian. -- CPU_ReadMem(4 bytes @ 0xE000EDF0) -- CPU_ReadMem(4 bytes @ 0xE0002000)FPUnit: 6 code (BP) slots and 2 literal slots -- CPU_ReadMem(4 bytes @ 0xE000EDFC) -- CPU_ReadMem(4 bytes @ 0xE0001000) -- CPU_WriteMem(4 bytes @ 0xE0001000) -- CPU_ReadMem(4 bytes @ 0xE000ED88) -- CPU_WriteMem(4 bytes @ 0xE000ED88) -- CPU_ReadMem(4 bytes @ 0xE000ED88) -- CPU_WriteMem(4 bytes @ 0xE000ED88)CoreSight components:
ROMTbl 0 @ E00FF000 -- CPU_ReadMem(16 bytes @ 0xE00FF000) -- CPU_ReadMem(16 bytes @ 0xE000EFF0) -- CPU_ReadMem(16 bytes @ 0xE000EFE0)ROMTbl 0 [0]: FFF0F000, CID: B105E00D, PID: 001BB000 SCS -- CPU_ReadMem(16 bytes @ 0xE0001FF0) -- CPU_ReadMem(16 bytes @ 0xE0001FE0)ROMTbl 0 [1]: FFF02000, CID: B105E00D, PID: 001BB002 DWT -- CPU_ReadMem(16 bytes @ 0xE0002FF0) -- CPU_ReadMem(16 bytes @ 0xE0002FE0)ROMTbl 0 [2]: FFF03000, CID: B105E00D, PID: 000BB003 FPB -- CPU_ReadMem(16 bytes @ 0xE0000FF0)
 -- CPU_ReadMem(16 bytes @ 0xE0000FE0)ROMTbl 0 [3]: FFF01000, CID: B105E00D, PID: 001BB001 ITM -- CPU_ReadMem(16 bytes @ 0xE00FF010) -- CPU_ReadMem(16 bytes @ 0xE0040FF0) -- CPU_ReadMem(16 bytes @ 0xE0040FE0)ROMTbl 0 [4]: FFF41000, CID: B105900D, PID: 001BB923 TPIU-Lite >0x0D TIF> >0x21 TIF>  returns 0x1BA01477 (0048ms, 0580ms total)
T56A0 000:611 JLINK_GetDLLVersion()  returns 51205 (0000ms, 0580ms total)
T56A0 000:611 JLINK_CORE_GetFound()  returns 0x30000FF (0000ms, 0580ms total)
T56A0 000:611 JLINK_GetDebugInfo(0x100) -- Value=0xE00FF000  returns 0x00 (0000ms, 0580ms total)
T56A0 000:611 JLINK_GetDebugInfo(0x100) -- Value=0xE00FF000  returns 0x00 (0000ms, 0580ms total)
T56A0 000:611 JLINK_GetDebugInfo(0x101) -- Value=0x00000000  returns 0x00 (0000ms, 0580ms total)
T56A0 000:611 JLINK_ReadMem (0xE0041FF0, 0x0010 Bytes, ...) -- CPU is running -- CPU_ReadMem(16 bytes @ 0xE0041FF0) - Data: 00 00 00 00 00 00 00 00 00 00 00 00 00 00 00 00  returns 0x00 (0000ms, 0580ms total)
T56A0 000:611 JLINK_GetDebugInfo(0x102) -- Value=0x00000000  returns 0x00 (0000ms, 0580ms total)
T56A0 000:611 JLINK_GetDebugInfo(0x103) -- Value=0xE0040000  returns 0x00 (0000ms, 0580ms total)
T56A0 000:611 JLINK_GetDebugInfo(0x104) -- Value=0xE0000000  returns 0x00 (0000ms, 0580ms total)
T56A0 000:611 JLINK_GetDebugInfo(0x105) -- Value=0xE0001000  returns 0x00 (0000ms, 0580ms total)
T56A0 000:611 JLINK_GetDebugInfo(0x106) -- Value=0xE0002000  returns 0x00 (0000ms, 0580ms total)
T56A0 000:611 JLINK_GetDebugInfo(0x107) -- Value=0xE000E000  returns 0x00 (0000ms, 0580ms total)
T56A0 000:611 JLINK_GetDebugInfo(0x10C) -- Value=0xE000EDF0  returns 0x00 (0000ms, 0580ms total)
T56A0 000:611 JLINK_ReadMemU32(0xE000ED00, 0x0001 Items, ...) -- CPU is running -- CPU_ReadMem(4 bytes @ 0xE000ED00) - Data: 31 C2 1F 41  returns 0x01 (0001ms, 0581ms total)
T56A0 000:612 JLINK_SetResetType(JLINKARM_RESET_TYPE_NORMAL)  returns JLINKARM_RESET_TYPE_NORMAL (0000ms, 0581ms total)
T56A0 000:612 JLINK_Reset() -- CPU is running -- CPU_WriteMem(4 bytes @ 0xE000EDF0) -- CPU is running -- CPU_WriteMem(4 bytes @ 0xE000EDFC) >0x35 TIF> -- CPU is running -- CPU_WriteMem(4 bytes @ 0xE000ED0C) -- CPU is running -- CPU_ReadMem(4 bytes @ 0xE000EDF0) -- CPU is running -- CPU_ReadMem(4 bytes @ 0xE000EDF0) -- CPU is running -- CPU_WriteMem(4 bytes @ 0xE000EDF0) -- CPU is running -- CPU_WriteMem(4 bytes @ 0xE000EDFC) -- CPU is running -- CPU_ReadMem(4 bytes @ 0xE000EDF0)
 -- CPU_WriteMem(4 bytes @ 0xE0002000) -- CPU_ReadMem(4 bytes @ 0xE000EDFC) -- CPU_ReadMem(4 bytes @ 0xE0001000) (0016ms, 0597ms total)
T56A0 000:628 JLINK_ReadReg(R15 (PC))  returns 0x08000144 (0000ms, 0597ms total)
T56A0 000:628 JLINK_ReadReg(XPSR)  returns 0x01000000 (0000ms, 0597ms total)
T56A0 000:628 JLINK_Halt()  returns 0x00 (0000ms, 0597ms total)
T56A0 000:628 JLINK_IsHalted()  returns TRUE (0000ms, 0597ms total)
T56A0 000:628 JLINK_ReadMemU32(0xE000EDF0, 0x0001 Items, ...) -- CPU_ReadMem(4 bytes @ 0xE000EDF0) - Data: 03 00 03 00  returns 0x01 (0000ms, 0597ms total)
T56A0 000:628 JLINK_WriteU32(0xE000EDF0, 0xA05F0003) -- CPU_WriteMem(4 bytes @ 0xE000EDF0)  returns 0x00 (0001ms, 0598ms total)
T56A0 000:629 JLINK_WriteU32(0xE000EDFC, 0x01000000) -- CPU_WriteMem(4 bytes @ 0xE000EDFC)  returns 0x00 (0000ms, 0598ms total)
T56A0 000:629 JLINK_GetHWStatus(...)  returns 0x00 (0001ms, 0599ms total)
T56A0 000:630 JLINK_GetNumBPUnits(Type = 0xFFFFFF00)  returns 0x06 (0000ms, 0599ms total)
T56A0 000:630 JLINK_GetNumBPUnits(Type = 0xF0)  returns 0x2000 (0000ms, 0599ms total)
T56A0 000:630 JLINK_GetNumWPUnits()  returns 0x04 (0000ms, 0599ms total)
T56A0 000:630 JLINK_GetSpeed()  returns 0xFA0 (0000ms, 0599ms total)
T56A0 000:630 JLINK_ReadMemU32(0xE000E004, 0x0001 Items, ...) -- CPU_ReadMem(4 bytes @ 0xE000E004) - Data: 01 00 00 00  returns 0x01 (0000ms, 0599ms total)
T56A0 000:630 JLINK_ReadMemU32(0xE000E004, 0x0001 Items, ...) -- CPU_ReadMem(4 bytes @ 0xE000E004) - Data: 01 00 00 00  returns 0x01 (0000ms, 0599ms total)
T56A0 000:630 JLINK_WriteMem(0xE0001000, 0x001C Bytes, ...) - Data: 01 00 00 00 00 00 00 00 00 00 00 00 00 00 00 00 ... -- CPU_WriteMem(28 bytes @ 0xE0001000)  returns 0x1C (0001ms, 0600ms total)
T56A0 000:631 JLINK_ReadMem (0xE0001000, 0x001C Bytes, ...) -- CPU_ReadMem(28 bytes @ 0xE0001000) - Data: 01 00 00 40 00 00 00 00 00 00 00 00 00 00 00 00 ...  returns 0x00 (0001ms, 0601ms total)
T56A0 000:632 JLINK_ReadReg(R15 (PC))  returns 0x08000144 (0000ms, 0601ms total)
T56A0 000:632 JLINK_ReadReg(XPSR)  returns 0x01000000 (0000ms, 0601ms total)
T56A0 000:713 JLINK_SetResetType(JLINKARM_RESET_TYPE_NORMAL)  returns JLINKARM_RESET_TYPE_NORMAL (0000ms, 0601ms total)
T56A0 000:713 JLINK_Reset() -- CPU_WriteMem(4 bytes @ 0xE000EDF0) -- CPU_WriteMem(4 bytes @ 0xE000EDFC) >0x35 TIF> -- CPU_WriteMem(4 bytes @ 0xE000ED0C) -- CPU_ReadMem(4 bytes @ 0xE000EDF0) -- CPU_ReadMem(4 bytes @ 0xE000EDF0) -- CPU_WriteMem(4 bytes @ 0xE000EDF0) -- CPU_WriteMem(4 bytes @ 0xE000EDFC) -- CPU is running -- CPU_ReadMem(4 bytes @ 0xE000EDF0) -- CPU_WriteMem(4 bytes @ 0xE0002000) -- CPU_ReadMem(4 bytes @ 0xE000EDFC) -- CPU_ReadMem(4 bytes @ 0xE0001000) (0020ms, 0621ms total)
T56A0 000:733 JLINK_ReadReg(R15 (PC))  returns 0x08000144 (0000ms, 0621ms total)
T56A0 000:733 JLINK_ReadReg(XPSR)  returns 0x01000000 (0000ms, 0621ms total)
T56A0 000:996 JLINK_ReadMem (0x08000144, 0x003C Bytes, ...) -- CPU_ReadMem(64 bytes @ 0x08000140) -- Updating C cache (64 bytes @ 0x08000140) -- Read from C cache (60 bytes @ 0x08000144) - Data: 06 48 80 47 06 48 00 47 FE E7 FE E7 FE E7 FE E7 ...  returns 0x00 (0001ms, 0622ms total)
T3A98 002:715 JLINK_SetBPEx(Addr = 0x080025B8, Type = 0xFFFFFFF2)  returns 0x00000001 (0000ms, 0622ms total)
T3A98 002:715 JLINK_Go() -- CPU_WriteMem(4 bytes @ 0xE0002000) -- CPU_ReadMem(4 bytes @ 0xE0001000) -- CPU_WriteMem(4 bytes @ 0xE0002008) -- CPU_WriteMem(4 bytes @ 0xE000200C) -- CPU_WriteMem(4 bytes @ 0xE0002010) -- CPU_WriteMem(4 bytes @ 0xE0002014) -- CPU_WriteMem(4 bytes @ 0xE0002018) -- CPU_WriteMem(4 bytes @ 0xE000201C) -- CPU_WriteMem(4 bytes @ 0xE0001004) (0004ms, 0626ms total)
T3A98 002:820 JLINK_IsHalted()  returns TRUE (0002ms, 0628ms total)
T3A98 002:822 JLINK_Halt()  returns 0x00 (0000ms, 0626ms total)
T3A98 002:822 JLINK_IsHalted()  returns TRUE (0000ms, 0626ms total)
T3A98 002:822 JLINK_IsHalted()  returns TRUE (0000ms, 0626ms total)
T3A98 002:822 JLINK_IsHalted()  returns TRUE (0000ms, 0626ms total)
T3A98 002:822 JLINK_ReadReg(R15 (PC))  returns 0x080025B8 (0000ms, 0626ms total)
T3A98 002:822 JLINK_ReadReg(XPSR)  returns 0x61000000 (0000ms, 0626ms total)
T3A98 002:822 JLINK_ClrBPEx(BPHandle = 0x00000001)  returns 0x00 (0000ms, 0626ms total)
T3A98 002:822 JLINK_ReadMemU32(0xE000ED30, 0x0001 Items, ...) -- CPU_ReadMem(4 bytes @ 0xE000ED30) - Data: 03 00 00 00  returns 0x01 (0000ms, 0626ms total)
T3A98 002:822 JLINK_ReadMemU32(0xE0001028, 0x0001 Items, ...) -- CPU_ReadMem(4 bytes @ 0xE0001028) - Data: 00 00 00 00  returns 0x01 (0001ms, 0627ms total)
T3A98 002:823 JLINK_ReadMemU32(0xE0001038, 0x0001 Items, ...) -- CPU_ReadMem(4 bytes @ 0xE0001038) - Data: 00 02 00 00  returns 0x01 (0000ms, 0627ms total)
T3A98 002:823 JLINK_ReadMemU32(0xE0001048, 0x0001 Items, ...) -- CPU_ReadMem(4 bytes @ 0xE0001048) - Data: 00 00 00 00  returns 0x01 (0001ms, 0628ms total)
T3A98 002:824 JLINK_ReadMemU32(0xE0001058, 0x0001 Items, ...) -- CPU_ReadMem(4 bytes @ 0xE0001058) - Data: 00 00 00 00  returns 0x01 (0000ms, 0628ms total)
T3A98 002:824 JLINK_ReadReg(R0)  returns 0x080025B9 (0000ms, 0628ms total)
T3A98 002:824 JLINK_ReadReg(R1)  returns 0x20001248 (0000ms, 0628ms total)
T3A98 002:824 JLINK_ReadReg(R2)  returns 0x00000000 (0000ms, 0628ms total)
T3A98 002:824 JLINK_ReadReg(R3)  returns 0x08002159 (0000ms, 0628ms total)
T3A98 002:824 JLINK_ReadReg(R4)  returns 0x08002854 (0000ms, 0628ms total)
T3A98 002:824 JLINK_ReadReg(R5)  returns 0x08002854 (0001ms, 0629ms total)
T3A98 002:825 JLINK_ReadReg(R6)  returns 0x00000000 (0000ms, 0629ms total)
T3A98 002:825 JLINK_ReadReg(R7)  returns 0x00000000 (0000ms, 0629ms total)
T3A98 002:825 JLINK_ReadReg(R8)  returns 0x00000000 (0000ms, 0629ms total)
T3A98 002:825 JLINK_ReadReg(R9)  returns 0x20000160 (0000ms, 0629ms total)
T3A98 002:825 JLINK_ReadReg(R10)  returns 0x00000000 (0000ms, 0629ms total)
T3A98 002:825 JLINK_ReadReg(R11)  returns 0x00000000 (0000ms, 0629ms total)
T3A98 002:825 JLINK_ReadReg(R12)  returns 0x00000020 (0000ms, 0629ms total)
T3A98 002:825 JLINK_ReadReg(R13 (SP))  returns 0x20001248 (0000ms, 0629ms total)
T3A98 002:825 JLINK_ReadReg(R14)  returns 0x08000E25 (0000ms, 0629ms total)
T3A98 002:825 JLINK_ReadReg(R15 (PC))  returns 0x080025B8 (0000ms, 0629ms total)
T3A98 002:825 JLINK_ReadReg(XPSR)  returns 0x61000000 (0000ms, 0629ms total)
T3A98 002:825 JLINK_ReadReg(MSP)  returns 0x20001248 (0000ms, 0629ms total)
T3A98 002:825 JLINK_ReadReg(PSP)  returns 0x20001000 (0000ms, 0629ms total)
T3A98 002:825 JLINK_ReadReg(CFBP)  returns 0x00000000 (0001ms, 0630ms total)
T56A0 002:827 JLINK_ReadMem (0x20001134, 0x0020 Bytes, ...) -- CPU_ReadMem(128 bytes @ 0x20001100) -- Updating C cache (128 bytes @ 0x20001100) -- Read from C cache (32 bytes @ 0x20001134) - Data: 00 00 00 00 00 00 00 00 00 00 00 00 00 00 00 00 ...  returns 0x00 (0001ms, 0631ms total)
T56A0 002:828 JLINK_ReadMem (0x00000000, 0x0001 Bytes, ...) -- CPU_ReadMem(4 bytes @ 0x00000004) -- CPU_ReadMem(64 bytes @ 0x08000000) -- Updating C cache (64 bytes @ 0x08000000) -- Read from C cache (1 bytes @ 0x08000000) - Data: 48  returns 0x00 (0029ms, 0660ms total)
T3A98 003:954 JLINK_ReadMem (0x080025B8, 0x003C Bytes, ...) -- CPU_ReadMem(128 bytes @ 0x08002580) -- Updating C cache (128 bytes @ 0x08002580) -- Read from C cache (60 bytes @ 0x080025B8) - Data: C6 B0 00 BF FF F7 4E FE 4F F4 16 50 00 F0 8E F8 ...  returns 0x00 (0001ms, 0661ms total)
T3A98 003:955 JLINK_Step() -- Read from C cache (2 bytes @ 0x080025B8) -- CPU_ReadMem(4 bytes @ 0xE000ED18) -- CPU_WriteMem(4 bytes @ 0xE000ED18) -- CPU_ReadMem(4 bytes @ 0xE000ED18) -- CPU_WriteMem(4 bytes @ 0xE000ED18) -- CPU_ReadMem(4 bytes @ 0xE0001004) -- Simulated  returns 0x00 (0003ms, 0664ms total)
T3A98 003:958 JLINK_ReadReg(R15 (PC))  returns 0x080025BA (0000ms, 0664ms total)
T3A98 003:958 JLINK_ReadReg(XPSR)  returns 0x61000000 (0000ms, 0664ms total)
T3A98 003:958 JLINK_ReadReg(R0)  returns 0x080025B9 (0000ms, 0664ms total)
T3A98 003:958 JLINK_ReadReg(R1)  returns 0x20001248 (0000ms, 0664ms total)
T3A98 003:958 JLINK_ReadReg(R2)  returns 0x00000000 (0000ms, 0664ms total)
T3A98 003:958 JLINK_ReadReg(R3)  returns 0x08002159 (0000ms, 0664ms total)
T3A98 003:958 JLINK_ReadReg(R4)  returns 0x08002854 (0000ms, 0664ms total)
T3A98 003:958 JLINK_ReadReg(R5)  returns 0x08002854 (0000ms, 0664ms total)
T3A98 003:958 JLINK_ReadReg(R6)  returns 0x00000000 (0000ms, 0664ms total)
T3A98 003:958 JLINK_ReadReg(R7)  returns 0x00000000 (0000ms, 0664ms total)
T3A98 003:958 JLINK_ReadReg(R8)  returns 0x00000000 (0000ms, 0664ms total)
T3A98 003:958 JLINK_ReadReg(R9)  returns 0x20000160 (0000ms, 0664ms total)
T3A98 003:958 JLINK_ReadReg(R10)  returns 0x00000000 (0000ms, 0664ms total)
T3A98 003:958 JLINK_ReadReg(R11)  returns 0x00000000 (0000ms, 0664ms total)
T3A98 003:958 JLINK_ReadReg(R12)  returns 0x00000020 (0000ms, 0664ms total)
T3A98 003:958 JLINK_ReadReg(R13 (SP))  returns 0x20001130 (0000ms, 0664ms total)
T3A98 003:958 JLINK_ReadReg(R14)  returns 0x08000E25 (0000ms, 0664ms total)
T3A98 003:958 JLINK_ReadReg(R15 (PC))  returns 0x080025BA (0000ms, 0664ms total)
T3A98 003:958 JLINK_ReadReg(XPSR)  returns 0x61000000 (0000ms, 0664ms total)
T3A98 003:958 JLINK_ReadReg(MSP)  returns 0x20001130 (0000ms, 0664ms total)
T3A98 003:958 JLINK_ReadReg(PSP)  returns 0x20001000 (0000ms, 0664ms total)
T3A98 003:958 JLINK_ReadReg(CFBP)  returns 0x00000000 (0000ms, 0664ms total)
T56A0 003:959 JLINK_ReadMem (0x20001134, 0x0020 Bytes, ...) -- Read from C cache (32 bytes @ 0x20001134) - Data: 00 00 00 00 00 00 00 00 00 00 00 00 00 00 00 00 ...  returns 0x00 (0000ms, 0664ms total)
T56A0 003:959 JLINK_ReadMem (0x00000000, 0x0001 Bytes, ...) -- Read from C cache (1 bytes @ 0x08000000) - Data: 48  returns 0x00 (0000ms, 0664ms total)
T56A0 003:959 JLINK_ReadMem (0x080025BA, 0x0002 Bytes, ...) -- Read from C cache (2 bytes @ 0x080025BA) - Data: 00 BF  returns 0x00 (0000ms, 0664ms total)
T56A0 003:959 JLINK_ReadMem (0x080025BC, 0x003C Bytes, ...) -- Read from C cache (60 bytes @ 0x080025BC) - Data: FF F7 4E FE 4F F4 16 50 00 F0 8E F8 4F F4 16 50 ...  returns 0x00 (0000ms, 0664ms total)
T3A98 004:362 JLINK_Step() -- Read from C cache (2 bytes @ 0x080025BA) -- Simulated  returns 0x00 (0001ms, 0665ms total)
T3A98 004:363 JLINK_ReadReg(R15 (PC))  returns 0x080025BC (0000ms, 0665ms total)
T3A98 004:363 JLINK_ReadReg(XPSR)  returns 0x61000000 (0000ms, 0665ms total)
T3A98 004:363 JLINK_ReadReg(R0)  returns 0x080025B9 (0000ms, 0665ms total)
T3A98 004:363 JLINK_ReadReg(R1)  returns 0x20001248 (0000ms, 0665ms total)
T3A98 004:363 JLINK_ReadReg(R2)  returns 0x00000000 (0000ms, 0665ms total)
T3A98 004:363 JLINK_ReadReg(R3)  returns 0x08002159 (0000ms, 0665ms total)
T3A98 004:363 JLINK_ReadReg(R4)  returns 0x08002854 (0000ms, 0665ms total)
T3A98 004:363 JLINK_ReadReg(R5)  returns 0x08002854 (0000ms, 0665ms total)
T3A98 004:363 JLINK_ReadReg(R6)  returns 0x00000000 (0000ms, 0665ms total)
T3A98 004:363 JLINK_ReadReg(R7)  returns 0x00000000 (0000ms, 0665ms total)
T3A98 004:363 JLINK_ReadReg(R8)  returns 0x00000000 (0000ms, 0665ms total)
T3A98 004:363 JLINK_ReadReg(R9)  returns 0x20000160 (0000ms, 0665ms total)
T3A98 004:363 JLINK_ReadReg(R10)  returns 0x00000000 (0000ms, 0665ms total)
T3A98 004:363 JLINK_ReadReg(R11)  returns 0x00000000 (0000ms, 0665ms total)
T3A98 004:363 JLINK_ReadReg(R12)  returns 0x00000020 (0000ms, 0665ms total)
T3A98 004:363 JLINK_ReadReg(R13 (SP))  returns 0x20001130 (0000ms, 0665ms total)
T3A98 004:363 JLINK_ReadReg(R14)  returns 0x08000E25 (0000ms, 0665ms total)
T3A98 004:363 JLINK_ReadReg(R15 (PC))  returns 0x080025BC (0000ms, 0665ms total)
T3A98 004:363 JLINK_ReadReg(XPSR)  returns 0x61000000 (0000ms, 0665ms total)
T3A98 004:363 JLINK_ReadReg(MSP)  returns 0x20001130 (0000ms, 0665ms total)
T3A98 004:363 JLINK_ReadReg(PSP)  returns 0x20001000 (0000ms, 0665ms total)
T3A98 004:363 JLINK_ReadReg(CFBP)  returns 0x00000000 (0000ms, 0665ms total)
T56A0 004:364 JLINK_ReadMem (0x20001134, 0x0020 Bytes, ...) -- Read from C cache (32 bytes @ 0x20001134) - Data: 00 00 00 00 00 00 00 00 00 00 00 00 00 00 00 00 ...  returns 0x00 (0000ms, 0665ms total)
T56A0 004:364 JLINK_ReadMem (0x00000000, 0x0001 Bytes, ...) -- Read from C cache (1 bytes @ 0x08000000) - Data: 48  returns 0x00 (0000ms, 0665ms total)
T56A0 004:365 JLINK_ReadMem (0x080025BC, 0x003C Bytes, ...) -- Read from C cache (60 bytes @ 0x080025BC) - Data: FF F7 4E FE 4F F4 16 50 00 F0 8E F8 4F F4 16 50 ...  returns 0x00 (0000ms, 0665ms total)
T3A98 004:859 JLINK_SetBPEx(Addr = 0x080025C0, Type = 0xFFFFFFF2)  returns 0x00000002 (0000ms, 0665ms total)
T3A98 004:859 JLINK_Go() -- CPU_WriteMem(4 bytes @ 0xE0002000) -- CPU_ReadMem(4 bytes @ 0xE0001000) -- CPU_WriteMem(4 bytes @ 0xE0002008) -- CPU_WriteMem(4 bytes @ 0xE0001004) (0003ms, 0668ms total)
T3A98 004:963 JLINK_IsHalted()  returns TRUE (0002ms, 0670ms total)
T3A98 004:965 JLINK_Halt()  returns 0x00 (0000ms, 0668ms total)
T3A98 004:965 JLINK_IsHalted()  returns TRUE (0000ms, 0668ms total)
T3A98 004:965 JLINK_IsHalted()  returns TRUE (0000ms, 0668ms total)
T3A98 004:965 JLINK_IsHalted()  returns TRUE (0000ms, 0668ms total)
T3A98 004:965 JLINK_ReadReg(R15 (PC))  returns 0x080025C0 (0000ms, 0668ms total)
T3A98 004:965 JLINK_ReadReg(XPSR)  returns 0xA1000000 (0000ms, 0668ms total)
T3A98 004:965 JLINK_ClrBPEx(BPHandle = 0x00000002)  returns 0x00 (0000ms, 0668ms total)
T3A98 004:965 JLINK_ReadMemU32(0xE000ED30, 0x0001 Items, ...) -- CPU_ReadMem(4 bytes @ 0xE000ED30) - Data: 03 00 00 00  returns 0x01 (0001ms, 0669ms total)
T3A98 004:966 JLINK_ReadMemU32(0xE0001028, 0x0001 Items, ...) -- CPU_ReadMem(4 bytes @ 0xE0001028) - Data: 00 00 00 00  returns 0x01 (0001ms, 0670ms total)
T3A98 004:967 JLINK_ReadMemU32(0xE0001038, 0x0001 Items, ...) -- CPU_ReadMem(4 bytes @ 0xE0001038) - Data: 00 02 00 00  returns 0x01 (0000ms, 0670ms total)
T3A98 004:967 JLINK_ReadMemU32(0xE0001048, 0x0001 Items, ...) -- CPU_ReadMem(4 bytes @ 0xE0001048) - Data: 00 00 00 00  returns 0x01 (0001ms, 0671ms total)
T3A98 004:968 JLINK_ReadMemU32(0xE0001058, 0x0001 Items, ...) -- CPU_ReadMem(4 bytes @ 0xE0001058) - Data: 00 00 00 00  returns 0x01 (0001ms, 0672ms total)
T3A98 004:969 JLINK_ReadReg(R0)  returns 0x00002328 (0000ms, 0672ms total)
T3A98 004:969 JLINK_ReadReg(R1)  returns 0x2000001A (0000ms, 0672ms total)
T3A98 004:969 JLINK_ReadReg(R2)  returns 0xE000E000 (0000ms, 0672ms total)
T3A98 004:969 JLINK_ReadReg(R3)  returns 0x08002159 (0000ms, 0672ms total)
T3A98 004:969 JLINK_ReadReg(R4)  returns 0x08002854 (0000ms, 0672ms total)
T3A98 004:969 JLINK_ReadReg(R5)  returns 0x08002854 (0000ms, 0672ms total)
T3A98 004:969 JLINK_ReadReg(R6)  returns 0x00000000 (0000ms, 0672ms total)
T3A98 004:969 JLINK_ReadReg(R7)  returns 0x00000000 (0000ms, 0672ms total)
T3A98 004:969 JLINK_ReadReg(R8)  returns 0x00000000 (0000ms, 0672ms total)
T3A98 004:969 JLINK_ReadReg(R9)  returns 0x20000160 (0000ms, 0672ms total)
T3A98 004:969 JLINK_ReadReg(R10)  returns 0x00000000 (0000ms, 0672ms total)
T3A98 004:969 JLINK_ReadReg(R11)  returns 0x00000000 (0000ms, 0672ms total)
T3A98 004:969 JLINK_ReadReg(R12)  returns 0x00000020 (0000ms, 0672ms total)
T3A98 004:969 JLINK_ReadReg(R13 (SP))  returns 0x20001130 (0000ms, 0672ms total)
T3A98 004:969 JLINK_ReadReg(R14)  returns 0x08002267 (0000ms, 0672ms total)
T3A98 004:969 JLINK_ReadReg(R15 (PC))  returns 0x080025C0 (0000ms, 0672ms total)
T3A98 004:969 JLINK_ReadReg(XPSR)  returns 0xA1000000 (0000ms, 0672ms total)
T3A98 004:969 JLINK_ReadReg(MSP)  returns 0x20001130 (0000ms, 0672ms total)
T3A98 004:969 JLINK_ReadReg(PSP)  returns 0x20001000 (0000ms, 0672ms total)
T3A98 004:969 JLINK_ReadReg(CFBP)  returns 0x00000000 (0000ms, 0672ms total)
T56A0 004:969 JLINK_ReadMem (0x20001134, 0x0020 Bytes, ...) -- CPU_ReadMem(128 bytes @ 0x20001100) -- Updating C cache (128 bytes @ 0x20001100) -- Read from C cache (32 bytes @ 0x20001134) - Data: 00 00 00 00 00 00 00 00 00 00 00 00 00 00 00 00 ...  returns 0x00 (0002ms, 0674ms total)
T56A0 004:971 JLINK_ReadMem (0x00000000, 0x0001 Bytes, ...) -- CPU_ReadMem(4 bytes @ 0x00000004) -- CPU_ReadMem(64 bytes @ 0x08000000) -- Updating C cache (64 bytes @ 0x08000000) -- Read from C cache (1 bytes @ 0x08000000) - Data: 48  returns 0x00 (0001ms, 0675ms total)
T56A0 004:975 JLINK_ReadMem (0x080025C0, 0x003C Bytes, ...) -- CPU_ReadMem(64 bytes @ 0x080025C0) -- Updating C cache (64 bytes @ 0x080025C0) -- Read from C cache (60 bytes @ 0x080025C0) - Data: 4F F4 16 50 00 F0 8E F8 4F F4 16 50 00 F0 DA F8 ...  returns 0x00 (0001ms, 0676ms total)
T3A98 005:386 JLINK_Step() -- Read from C cache (2 bytes @ 0x080025C0) -- CPU_ReadMem(4 bytes @ 0xE0001004) -- Read from C cache (2 bytes @ 0x080025C2) -- Simulated  returns 0x00 (0000ms, 0676ms total)
T3A98 005:386 JLINK_ReadReg(R15 (PC))  returns 0x080025C4 (0000ms, 0676ms total)
T3A98 005:386 JLINK_ReadReg(XPSR)  returns 0xA1000000 (0000ms, 0676ms total)
T3A98 005:386 JLINK_SetBPEx(Addr = 0x080025C8, Type = 0xFFFFFFF2)  returns 0x00000003 (0000ms, 0676ms total)
T3A98 005:387 JLINK_Go() -- CPU_WriteMem(4 bytes @ 0xE0002000) -- CPU_ReadMem(4 bytes @ 0xE0001000) -- CPU_WriteMem(4 bytes @ 0xE0002008) -- CPU_WriteMem(4 bytes @ 0xE0001004) (0002ms, 0679ms total)
T3A98 005:490 JLINK_IsHalted()  returns TRUE (0002ms, 0681ms total)
T3A98 005:492 JLINK_Halt()  returns 0x00 (0000ms, 0679ms total)
T3A98 005:492 JLINK_IsHalted()  returns TRUE (0000ms, 0679ms total)
T3A98 005:492 JLINK_IsHalted()  returns TRUE (0000ms, 0679ms total)
T3A98 005:492 JLINK_IsHalted()  returns TRUE (0000ms, 0679ms total)
T3A98 005:492 JLINK_ReadReg(R15 (PC))  returns 0x080025C8 (0000ms, 0679ms total)
T3A98 005:492 JLINK_ReadReg(XPSR)  returns 0x01000000 (0000ms, 0679ms total)
T3A98 005:492 JLINK_ClrBPEx(BPHandle = 0x00000003)  returns 0x00 (0000ms, 0679ms total)
T3A98 005:492 JLINK_ReadMemU32(0xE000ED30, 0x0001 Items, ...) -- CPU_ReadMem(4 bytes @ 0xE000ED30) - Data: 03 00 00 00  returns 0x01 (0000ms, 0679ms total)
T3A98 005:492 JLINK_ReadMemU32(0xE0001028, 0x0001 Items, ...) -- CPU_ReadMem(4 bytes @ 0xE0001028) - Data: 00 00 00 00  returns 0x01 (0001ms, 0680ms total)
T3A98 005:493 JLINK_ReadMemU32(0xE0001038, 0x0001 Items, ...) -- CPU_ReadMem(4 bytes @ 0xE0001038) - Data: 00 02 00 00  returns 0x01 (0000ms, 0680ms total)
T3A98 005:494 JLINK_ReadMemU32(0xE0001048, 0x0001 Items, ...) -- CPU_ReadMem(4 bytes @ 0xE0001048) - Data: 00 00 00 00  returns 0x01 (0001ms, 0681ms total)
T3A98 005:495 JLINK_ReadMemU32(0xE0001058, 0x0001 Items, ...) -- CPU_ReadMem(4 bytes @ 0xE0001058) - Data: 00 00 00 00  returns 0x01 (0000ms, 0681ms total)
T3A98 005:495 JLINK_ReadReg(R0)  returns 0x40013800 (0000ms, 0681ms total)
T3A98 005:495 JLINK_ReadReg(R1)  returns 0x00000001 (0000ms, 0681ms total)
T3A98 005:495 JLINK_ReadReg(R2)  returns 0x0000202C (0000ms, 0681ms total)
T3A98 005:495 JLINK_ReadReg(R3)  returns 0x40013800 (0000ms, 0681ms total)
T3A98 005:495 JLINK_ReadReg(R4)  returns 0x08002854 (0000ms, 0681ms total)
T3A98 005:495 JLINK_ReadReg(R5)  returns 0x08002854 (0000ms, 0681ms total)
T3A98 005:495 JLINK_ReadReg(R6)  returns 0x00000000 (0000ms, 0681ms total)
T3A98 005:495 JLINK_ReadReg(R7)  returns 0x00000000 (0000ms, 0681ms total)
T3A98 005:495 JLINK_ReadReg(R8)  returns 0x00000000 (0000ms, 0681ms total)
T3A98 005:495 JLINK_ReadReg(R9)  returns 0x20000160 (0000ms, 0681ms total)
T3A98 005:495 JLINK_ReadReg(R10)  returns 0x00000000 (0000ms, 0681ms total)
T3A98 005:495 JLINK_ReadReg(R11)  returns 0x00000000 (0000ms, 0681ms total)
T3A98 005:495 JLINK_ReadReg(R12)  returns 0x00000400 (0000ms, 0681ms total)
T3A98 005:495 JLINK_ReadReg(R13 (SP))  returns 0x20001130 (0000ms, 0681ms total)
T3A98 005:495 JLINK_ReadReg(R14)  returns 0x08002779 (0000ms, 0681ms total)
T3A98 005:495 JLINK_ReadReg(R15 (PC))  returns 0x080025C8 (0000ms, 0681ms total)
T3A98 005:495 JLINK_ReadReg(XPSR)  returns 0x01000000 (0000ms, 0681ms total)
T3A98 005:495 JLINK_ReadReg(MSP)  returns 0x20001130 (0000ms, 0681ms total)
T3A98 005:495 JLINK_ReadReg(PSP)  returns 0x20001000 (0000ms, 0681ms total)
T3A98 005:495 JLINK_ReadReg(CFBP)  returns 0x00000000 (0000ms, 0681ms total)
T56A0 005:496 JLINK_ReadMem (0x20001134, 0x0020 Bytes, ...) -- CPU_ReadMem(128 bytes @ 0x20001100) -- Updating C cache (128 bytes @ 0x20001100) -- Read from C cache (32 bytes @ 0x20001134) - Data: 00 00 00 00 00 00 00 00 00 00 00 00 00 00 00 00 ...  returns 0x00 (0001ms, 0682ms total)
T56A0 005:497 JLINK_ReadMem (0x00000000, 0x0001 Bytes, ...) -- CPU_ReadMem(4 bytes @ 0x00000004) -- CPU_ReadMem(64 bytes @ 0x08000000) -- Updating C cache (64 bytes @ 0x08000000) -- Read from C cache (1 bytes @ 0x08000000) - Data: 48  returns 0x00 (0001ms, 0683ms total)
T56A0 005:499 JLINK_ReadMem (0x080025C8, 0x003C Bytes, ...) -- CPU_ReadMem(128 bytes @ 0x080025C0) -- Updating C cache (128 bytes @ 0x080025C0) -- Read from C cache (60 bytes @ 0x080025C8) - Data: 4F F4 16 50 00 F0 DA F8 FE F7 99 FF FF F7 D4 FE ...  returns 0x00 (0002ms, 0685ms total)
T3A98 005:908 JLINK_Step() -- Read from C cache (2 bytes @ 0x080025C8) -- CPU_ReadMem(4 bytes @ 0xE0001004) -- Read from C cache (2 bytes @ 0x080025CA) -- Simulated  returns 0x00 (0000ms, 0685ms total)
T3A98 005:908 JLINK_ReadReg(R15 (PC))  returns 0x080025CC (0000ms, 0685ms total)
T3A98 005:908 JLINK_ReadReg(XPSR)  returns 0x01000000 (0000ms, 0685ms total)
T3A98 005:908 JLINK_SetBPEx(Addr = 0x080025D0, Type = 0xFFFFFFF2)  returns 0x00000004 (0000ms, 0685ms total)
T3A98 005:908 JLINK_Go() -- CPU_WriteMem(4 bytes @ 0xE0002000) -- CPU_ReadMem(4 bytes @ 0xE0001000) -- CPU_WriteMem(4 bytes @ 0xE0002008) -- CPU_WriteMem(4 bytes @ 0xE0001004) (0003ms, 0688ms total)
T3A98 006:012 JLINK_IsHalted()  returns TRUE (0002ms, 0690ms total)
T3A98 006:014 JLINK_Halt()  returns 0x00 (0000ms, 0688ms total)
T3A98 006:014 JLINK_IsHalted()  returns TRUE (0000ms, 0688ms total)
T3A98 006:014 JLINK_IsHalted()  returns TRUE (0000ms, 0688ms total)
T3A98 006:014 JLINK_IsHalted()  returns TRUE (0000ms, 0688ms total)
T3A98 006:014 JLINK_ReadReg(R15 (PC))  returns 0x080025D0 (0000ms, 0688ms total)
T3A98 006:014 JLINK_ReadReg(XPSR)  returns 0x01000000 (0000ms, 0688ms total)
T3A98 006:014 JLINK_ClrBPEx(BPHandle = 0x00000004)  returns 0x00 (0000ms, 0688ms total)
T3A98 006:014 JLINK_ReadMemU32(0xE000ED30, 0x0001 Items, ...) -- CPU_ReadMem(4 bytes @ 0xE000ED30) - Data: 03 00 00 00  returns 0x01 (0001ms, 0689ms total)
T3A98 006:015 JLINK_ReadMemU32(0xE0001028, 0x0001 Items, ...) -- CPU_ReadMem(4 bytes @ 0xE0001028) - Data: 00 00 00 00  returns 0x01 (0001ms, 0690ms total)
T3A98 006:016 JLINK_ReadMemU32(0xE0001038, 0x0001 Items, ...) -- CPU_ReadMem(4 bytes @ 0xE0001038) - Data: 00 02 00 00  returns 0x01 (0000ms, 0690ms total)
T3A98 006:016 JLINK_ReadMemU32(0xE0001048, 0x0001 Items, ...) -- CPU_ReadMem(4 bytes @ 0xE0001048) - Data: 00 00 00 00  returns 0x01 (0001ms, 0691ms total)
T3A98 006:017 JLINK_ReadMemU32(0xE0001058, 0x0001 Items, ...) -- CPU_ReadMem(4 bytes @ 0xE0001058) - Data: 00 00 00 00  returns 0x01 (0001ms, 0692ms total)
T3A98 006:018 JLINK_ReadReg(R0)  returns 0x40004400 (0000ms, 0692ms total)
T3A98 006:018 JLINK_ReadReg(R1)  returns 0x00000001 (0000ms, 0692ms total)
T3A98 006:018 JLINK_ReadReg(R2)  returns 0x0000202C (0000ms, 0692ms total)
T3A98 006:018 JLINK_ReadReg(R3)  returns 0x40004400 (0000ms, 0692ms total)
T3A98 006:018 JLINK_ReadReg(R4)  returns 0x08002854 (0000ms, 0692ms total)
T3A98 006:018 JLINK_ReadReg(R5)  returns 0x08002854 (0000ms, 0692ms total)
T3A98 006:018 JLINK_ReadReg(R6)  returns 0x00000000 (0000ms, 0692ms total)
T3A98 006:018 JLINK_ReadReg(R7)  returns 0x00000000 (0000ms, 0692ms total)
T3A98 006:018 JLINK_ReadReg(R8)  returns 0x00000000 (0000ms, 0692ms total)
T3A98 006:018 JLINK_ReadReg(R9)  returns 0x20000160 (0000ms, 0692ms total)
T3A98 006:018 JLINK_ReadReg(R10)  returns 0x00000000 (0000ms, 0692ms total)
T3A98 006:018 JLINK_ReadReg(R11)  returns 0x00000000 (0000ms, 0692ms total)
T3A98 006:018 JLINK_ReadReg(R12)  returns 0x00000008 (0000ms, 0692ms total)
T3A98 006:018 JLINK_ReadReg(R13 (SP))  returns 0x20001130 (0000ms, 0692ms total)
T3A98 006:018 JLINK_ReadReg(R14)  returns 0x08002825 (0000ms, 0692ms total)
T3A98 006:018 JLINK_ReadReg(R15 (PC))  returns 0x080025D0 (0000ms, 0692ms total)
T3A98 006:018 JLINK_ReadReg(XPSR)  returns 0x01000000 (0000ms, 0692ms total)
T3A98 006:018 JLINK_ReadReg(MSP)  returns 0x20001130 (0000ms, 0692ms total)
T3A98 006:018 JLINK_ReadReg(PSP)  returns 0x20001000 (0000ms, 0692ms total)
T3A98 006:018 JLINK_ReadReg(CFBP)  returns 0x00000000 (0000ms, 0692ms total)
T56A0 006:018 JLINK_ReadMem (0x20001134, 0x0020 Bytes, ...) -- CPU_ReadMem(128 bytes @ 0x20001100) -- Updating C cache (128 bytes @ 0x20001100) -- Read from C cache (32 bytes @ 0x20001134) - Data: 00 00 00 00 00 00 00 00 00 00 00 00 00 00 00 00 ...  returns 0x00 (0002ms, 0694ms total)
T56A0 006:020 JLINK_ReadMem (0x00000000, 0x0001 Bytes, ...) -- CPU_ReadMem(4 bytes @ 0x00000004) -- CPU_ReadMem(64 bytes @ 0x08000000) -- Updating C cache (64 bytes @ 0x08000000) -- Read from C cache (1 bytes @ 0x08000000) - Data: 48  returns 0x00 (0001ms, 0695ms total)
T56A0 006:023 JLINK_ReadMem (0x080025D0, 0x003C Bytes, ...) -- CPU_ReadMem(128 bytes @ 0x080025C0) -- Updating C cache (128 bytes @ 0x080025C0) -- Read from C cache (60 bytes @ 0x080025D0) - Data: FE F7 99 FF FF F7 D4 FE FF F7 32 F9 FF F7 20 F9 ...  returns 0x00 (0001ms, 0696ms total)
T3A98 006:507 JLINK_SetBPEx(Addr = 0x080025D4, Type = 0xFFFFFFF2)  returns 0x00000005 (0001ms, 0697ms total)
T3A98 006:508 JLINK_Go() -- CPU_WriteMem(4 bytes @ 0xE0002000) -- CPU_ReadMem(4 bytes @ 0xE0001000) -- CPU_WriteMem(4 bytes @ 0xE0002008) (0001ms, 0698ms total)
T3A98 006:610 JLINK_IsHalted()  returns TRUE (0002ms, 0700ms total)
T3A98 006:612 JLINK_Halt()  returns 0x00 (0000ms, 0698ms total)
T3A98 006:612 JLINK_IsHalted()  returns TRUE (0000ms, 0698ms total)
T3A98 006:612 JLINK_IsHalted()  returns TRUE (0000ms, 0698ms total)
T3A98 006:612 JLINK_IsHalted()  returns TRUE (0000ms, 0698ms total)
T3A98 006:612 JLINK_ReadReg(R15 (PC))  returns 0x080025D4 (0000ms, 0698ms total)
T3A98 006:612 JLINK_ReadReg(XPSR)  returns 0x01000000 (0000ms, 0698ms total)
T3A98 006:613 JLINK_ClrBPEx(BPHandle = 0x00000005)  returns 0x00 (0000ms, 0698ms total)
T3A98 006:613 JLINK_ReadMemU32(0xE000ED30, 0x0001 Items, ...) -- CPU_ReadMem(4 bytes @ 0xE000ED30) - Data: 03 00 00 00  returns 0x01 (0000ms, 0698ms total)
T3A98 006:613 JLINK_ReadMemU32(0xE0001028, 0x0001 Items, ...) -- CPU_ReadMem(4 bytes @ 0xE0001028) - Data: 00 00 00 00  returns 0x01 (0000ms, 0698ms total)
T3A98 006:613 JLINK_ReadMemU32(0xE0001038, 0x0001 Items, ...) -- CPU_ReadMem(4 bytes @ 0xE0001038) - Data: 00 02 00 00  returns 0x01 (0001ms, 0699ms total)
T3A98 006:614 JLINK_ReadMemU32(0xE0001048, 0x0001 Items, ...) -- CPU_ReadMem(4 bytes @ 0xE0001048) - Data: 00 00 00 00  returns 0x01 (0001ms, 0700ms total)
T3A98 006:615 JLINK_ReadMemU32(0xE0001058, 0x0001 Items, ...) -- CPU_ReadMem(4 bytes @ 0xE0001058) - Data: 00 00 00 00  returns 0x01 (0000ms, 0700ms total)
T3A98 006:615 JLINK_ReadReg(R0)  returns 0x40000000 (0000ms, 0700ms total)
T3A98 006:615 JLINK_ReadReg(R1)  returns 0x00000047 (0000ms, 0700ms total)
T3A98 006:615 JLINK_ReadReg(R2)  returns 0x000003E8 (0000ms, 0700ms total)
T3A98 006:615 JLINK_ReadReg(R3)  returns 0x40004400 (0000ms, 0700ms total)
T3A98 006:615 JLINK_ReadReg(R4)  returns 0x08002854 (0000ms, 0700ms total)
T3A98 006:615 JLINK_ReadReg(R5)  returns 0x08002854 (0000ms, 0700ms total)
T3A98 006:615 JLINK_ReadReg(R6)  returns 0x00000000 (0000ms, 0700ms total)
T3A98 006:615 JLINK_ReadReg(R7)  returns 0x00000000 (0000ms, 0700ms total)
T3A98 006:615 JLINK_ReadReg(R8)  returns 0x00000000 (0000ms, 0700ms total)
T3A98 006:615 JLINK_ReadReg(R9)  returns 0x20000160 (0000ms, 0700ms total)
T3A98 006:615 JLINK_ReadReg(R10)  returns 0x00000000 (0000ms, 0700ms total)
T3A98 006:615 JLINK_ReadReg(R11)  returns 0x00000000 (0000ms, 0700ms total)
T3A98 006:615 JLINK_ReadReg(R12)  returns 0x00000008 (0000ms, 0700ms total)
T3A98 006:615 JLINK_ReadReg(R13 (SP))  returns 0x20001130 (0000ms, 0700ms total)
T3A98 006:615 JLINK_ReadReg(R14)  returns 0x0800154D (0000ms, 0700ms total)
T3A98 006:615 JLINK_ReadReg(R15 (PC))  returns 0x080025D4 (0000ms, 0700ms total)
T3A98 006:615 JLINK_ReadReg(XPSR)  returns 0x01000000 (0000ms, 0700ms total)
T3A98 006:615 JLINK_ReadReg(MSP)  returns 0x20001130 (0001ms, 0701ms total)
T3A98 006:616 JLINK_ReadReg(PSP)  returns 0x20001000 (0000ms, 0701ms total)
T3A98 006:616 JLINK_ReadReg(CFBP)  returns 0x00000000 (0000ms, 0701ms total)
T56A0 006:616 JLINK_ReadMem (0x20001134, 0x0020 Bytes, ...) -- CPU_ReadMem(128 bytes @ 0x20001100) -- Updating C cache (128 bytes @ 0x20001100) -- Read from C cache (32 bytes @ 0x20001134) - Data: 00 00 00 00 00 00 00 00 00 00 00 00 00 00 00 00 ...  returns 0x00 (0001ms, 0702ms total)
T56A0 006:617 JLINK_ReadMem (0x00000000, 0x0001 Bytes, ...) -- CPU_ReadMem(4 bytes @ 0x00000004) -- CPU_ReadMem(64 bytes @ 0x08000000) -- Updating C cache (64 bytes @ 0x08000000) -- Read from C cache (1 bytes @ 0x08000000) - Data: 48  returns 0x00 (0002ms, 0704ms total)
T56A0 006:621 JLINK_ReadMem (0x080025D4, 0x003C Bytes, ...) -- CPU_ReadMem(128 bytes @ 0x080025C0) -- Updating C cache (128 bytes @ 0x080025C0) -- Read from C cache (60 bytes @ 0x080025D4) - Data: FF F7 D4 FE FF F7 32 F9 FF F7 20 F9 08 B9 00 BF ...  returns 0x00 (0001ms, 0705ms total)
T3A98 007:074 JLINK_SetBPEx(Addr = 0x080025D8, Type = 0xFFFFFFF2)  returns 0x00000006 (0000ms, 0705ms total)
T3A98 007:074 JLINK_Go() -- CPU_WriteMem(4 bytes @ 0xE0002000) -- CPU_ReadMem(4 bytes @ 0xE0001000) -- CPU_WriteMem(4 bytes @ 0xE0002008) (0002ms, 0707ms total)
T3A98 007:177 JLINK_IsHalted()  returns TRUE (0002ms, 0709ms total)
T3A98 007:179 JLINK_Halt()  returns 0x00 (0000ms, 0707ms total)
T3A98 007:179 JLINK_IsHalted()  returns TRUE (0000ms, 0707ms total)
T3A98 007:179 JLINK_IsHalted()  returns TRUE (0000ms, 0707ms total)
T3A98 007:179 JLINK_IsHalted()  returns TRUE (0000ms, 0707ms total)
T3A98 007:179 JLINK_ReadReg(R15 (PC))  returns 0x080025D8 (0000ms, 0707ms total)
T3A98 007:179 JLINK_ReadReg(XPSR)  returns 0x21000000 (0000ms, 0707ms total)
T3A98 007:179 JLINK_ClrBPEx(BPHandle = 0x00000006)  returns 0x00 (0000ms, 0707ms total)
T3A98 007:179 JLINK_ReadMemU32(0xE000ED30, 0x0001 Items, ...) -- CPU_ReadMem(4 bytes @ 0xE000ED30) - Data: 03 00 00 00  returns 0x01 (0001ms, 0708ms total)
T3A98 007:180 JLINK_ReadMemU32(0xE0001028, 0x0001 Items, ...) -- CPU_ReadMem(4 bytes @ 0xE0001028) - Data: 00 00 00 00  returns 0x01 (0000ms, 0708ms total)
T3A98 007:180 JLINK_ReadMemU32(0xE0001038, 0x0001 Items, ...) -- CPU_ReadMem(4 bytes @ 0xE0001038) - Data: 00 02 00 00  returns 0x01 (0001ms, 0709ms total)
T3A98 007:181 JLINK_ReadMemU32(0xE0001048, 0x0001 Items, ...) -- CPU_ReadMem(4 bytes @ 0xE0001048) - Data: 00 00 00 00  returns 0x01 (0000ms, 0709ms total)
T3A98 007:181 JLINK_ReadMemU32(0xE0001058, 0x0001 Items, ...) -- CPU_ReadMem(4 bytes @ 0xE0001058) - Data: 00 00 00 00  returns 0x01 (0000ms, 0709ms total)
T3A98 007:182 JLINK_ReadReg(R0)  returns 0x00000800 (0000ms, 0709ms total)
T3A98 007:182 JLINK_ReadReg(R1)  returns 0x40010C10 (0000ms, 0709ms total)
T3A98 007:182 JLINK_ReadReg(R2)  returns 0x40010C00 (0000ms, 0709ms total)
T3A98 007:182 JLINK_ReadReg(R3)  returns 0x14030C00 (0000ms, 0709ms total)
T3A98 007:182 JLINK_ReadReg(R4)  returns 0x08002854 (0000ms, 0709ms total)
T3A98 007:182 JLINK_ReadReg(R5)  returns 0x08002854 (0000ms, 0709ms total)
T3A98 007:182 JLINK_ReadReg(R6)  returns 0x00000000 (0000ms, 0709ms total)
T3A98 007:182 JLINK_ReadReg(R7)  returns 0x00000000 (0000ms, 0709ms total)
T3A98 007:182 JLINK_ReadReg(R8)  returns 0x00000000 (0000ms, 0709ms total)
T3A98 007:182 JLINK_ReadReg(R9)  returns 0x20000160 (0000ms, 0709ms total)
T3A98 007:182 JLINK_ReadReg(R10)  returns 0x00000000 (0000ms, 0709ms total)
T3A98 007:182 JLINK_ReadReg(R11)  returns 0x00000000 (0000ms, 0709ms total)
T3A98 007:182 JLINK_ReadReg(R12)  returns 0x00000C00 (0000ms, 0709ms total)
T3A98 007:182 JLINK_ReadReg(R13 (SP))  returns 0x20001130 (0000ms, 0709ms total)
T3A98 007:182 JLINK_ReadReg(R14)  returns 0x080024E9 (0000ms, 0709ms total)
T3A98 007:182 JLINK_ReadReg(R15 (PC))  returns 0x080025D8 (0000ms, 0709ms total)
T3A98 007:182 JLINK_ReadReg(XPSR)  returns 0x21000000 (0000ms, 0709ms total)
T3A98 007:182 JLINK_ReadReg(MSP)  returns 0x20001130 (0000ms, 0709ms total)
T3A98 007:182 JLINK_ReadReg(PSP)  returns 0x20001000 (0000ms, 0709ms total)
T3A98 007:182 JLINK_ReadReg(CFBP)  returns 0x00000000 (0000ms, 0709ms total)
T56A0 007:182 JLINK_ReadMem (0x20001134, 0x0020 Bytes, ...) -- CPU_ReadMem(128 bytes @ 0x20001100) -- Updating C cache (128 bytes @ 0x20001100) -- Read from C cache (32 bytes @ 0x20001134) - Data: 00 00 00 00 00 00 00 00 00 00 00 00 00 00 00 00 ...  returns 0x00 (0001ms, 0710ms total)
T56A0 007:184 JLINK_ReadMem (0x00000000, 0x0001 Bytes, ...) -- CPU_ReadMem(4 bytes @ 0x00000004) -- CPU_ReadMem(64 bytes @ 0x08000000) -- Updating C cache (64 bytes @ 0x08000000) -- Read from C cache (1 bytes @ 0x08000000) - Data: 48  returns 0x00 (0001ms, 0711ms total)
T56A0 007:186 JLINK_ReadMem (0x080025D8, 0x003C Bytes, ...) -- CPU_ReadMem(128 bytes @ 0x080025C0) -- Updating C cache (128 bytes @ 0x080025C0) -- Read from C cache (60 bytes @ 0x080025D8) - Data: FF F7 32 F9 FF F7 20 F9 08 B9 00 BF FE E7 FE F7 ...  returns 0x00 (0002ms, 0713ms total)
T3A98 007:578 JLINK_SetBPEx(Addr = 0x080025DC, Type = 0xFFFFFFF2)  returns 0x00000007 (0000ms, 0713ms total)
T3A98 007:578 JLINK_Go() -- CPU_WriteMem(4 bytes @ 0xE0002000) -- CPU_ReadMem(4 bytes @ 0xE0001000) -- CPU_WriteMem(4 bytes @ 0xE0002008) (0002ms, 0715ms total)
T3A98 007:681 JLINK_IsHalted()  returns FALSE (0000ms, 0715ms total)
T3A98 007:782 JLINK_IsHalted()  returns TRUE (0002ms, 0717ms total)
T3A98 007:784 JLINK_Halt()  returns 0x00 (0000ms, 0715ms total)
T3A98 007:784 JLINK_IsHalted()  returns TRUE (0000ms, 0715ms total)
T3A98 007:784 JLINK_IsHalted()  returns TRUE (0000ms, 0715ms total)
T3A98 007:784 JLINK_IsHalted()  returns TRUE (0000ms, 0715ms total)
T3A98 007:784 JLINK_ReadReg(R15 (PC))  returns 0x080025DC (0000ms, 0715ms total)
T3A98 007:784 JLINK_ReadReg(XPSR)  returns 0x21000000 (0000ms, 0715ms total)
T3A98 007:784 JLINK_ClrBPEx(BPHandle = 0x00000007)  returns 0x00 (0000ms, 0715ms total)
T3A98 007:784 JLINK_ReadMemU32(0xE000ED30, 0x0001 Items, ...) -- CPU_ReadMem(4 bytes @ 0xE000ED30) - Data: 03 00 00 00  returns 0x01 (0001ms, 0716ms total)
T3A98 007:785 JLINK_ReadMemU32(0xE0001028, 0x0001 Items, ...) -- CPU_ReadMem(4 bytes @ 0xE0001028) - Data: 00 00 00 00  returns 0x01 (0000ms, 0716ms total)
T3A98 007:785 JLINK_ReadMemU32(0xE0001038, 0x0001 Items, ...) -- CPU_ReadMem(4 bytes @ 0xE0001038) - Data: 00 02 00 00  returns 0x01 (0001ms, 0717ms total)
T3A98 007:786 JLINK_ReadMemU32(0xE0001048, 0x0001 Items, ...) -- CPU_ReadMem(4 bytes @ 0xE0001048) - Data: 00 00 00 00  returns 0x01 (0000ms, 0717ms total)
T3A98 007:786 JLINK_ReadMemU32(0xE0001058, 0x0001 Items, ...) -- CPU_ReadMem(4 bytes @ 0xE0001058) - Data: 00 00 00 00  returns 0x01 (0001ms, 0718ms total)
T3A98 007:787 JLINK_ReadReg(R0)  returns 0x00000800 (0000ms, 0718ms total)
T3A98 007:787 JLINK_ReadReg(R1)  returns 0x40010C10 (0000ms, 0718ms total)
T3A98 007:787 JLINK_ReadReg(R2)  returns 0x40010C00 (0000ms, 0718ms total)
T3A98 007:787 JLINK_ReadReg(R3)  returns 0x14030C00 (0000ms, 0718ms total)
T3A98 007:787 JLINK_ReadReg(R4)  returns 0x08002854 (0000ms, 0718ms total)
T3A98 007:787 JLINK_ReadReg(R5)  returns 0x08002854 (0000ms, 0718ms total)
T3A98 007:787 JLINK_ReadReg(R6)  returns 0x00000000 (0000ms, 0718ms total)
T3A98 007:787 JLINK_ReadReg(R7)  returns 0x00000000 (0000ms, 0718ms total)
T3A98 007:787 JLINK_ReadReg(R8)  returns 0x00000000 (0000ms, 0718ms total)
T3A98 007:787 JLINK_ReadReg(R9)  returns 0x20000160 (0000ms, 0718ms total)
T3A98 007:787 JLINK_ReadReg(R10)  returns 0x00000000 (0000ms, 0718ms total)
T3A98 007:787 JLINK_ReadReg(R11)  returns 0x00000000 (0000ms, 0718ms total)
T3A98 007:787 JLINK_ReadReg(R12)  returns 0x00000C00 (0000ms, 0718ms total)
T3A98 007:787 JLINK_ReadReg(R13 (SP))  returns 0x20001130 (0000ms, 0718ms total)
T3A98 007:787 JLINK_ReadReg(R14)  returns 0x080024E9 (0000ms, 0718ms total)
T3A98 007:787 JLINK_ReadReg(R15 (PC))  returns 0x080025DC (0000ms, 0718ms total)
T3A98 007:787 JLINK_ReadReg(XPSR)  returns 0x21000000 (0000ms, 0718ms total)
T3A98 007:787 JLINK_ReadReg(MSP)  returns 0x20001130 (0000ms, 0718ms total)
T3A98 007:787 JLINK_ReadReg(PSP)  returns 0x20001000 (0000ms, 0718ms total)
T3A98 007:787 JLINK_ReadReg(CFBP)  returns 0x00000000 (0000ms, 0718ms total)
T56A0 007:787 JLINK_ReadMem (0x20001134, 0x0020 Bytes, ...) -- CPU_ReadMem(128 bytes @ 0x20001100) -- Updating C cache (128 bytes @ 0x20001100) -- Read from C cache (32 bytes @ 0x20001134) - Data: 00 00 00 00 00 00 00 00 00 00 00 00 00 00 00 00 ...  returns 0x00 (0002ms, 0720ms total)
T56A0 007:789 JLINK_ReadMem (0x00000000, 0x0001 Bytes, ...) -- CPU_ReadMem(4 bytes @ 0x00000004) -- CPU_ReadMem(64 bytes @ 0x08000000) -- Updating C cache (64 bytes @ 0x08000000) -- Read from C cache (1 bytes @ 0x08000000) - Data: 48  returns 0x00 (0001ms, 0721ms total)
T56A0 007:792 JLINK_ReadMem (0x080025DC, 0x003C Bytes, ...) -- CPU_ReadMem(128 bytes @ 0x080025C0) -- Updating C cache (128 bytes @ 0x080025C0) -- Read from C cache (60 bytes @ 0x080025DC) - Data: FF F7 20 F9 08 B9 00 BF FE E7 FE F7 BF FE 01 28 ...  returns 0x00 (0001ms, 0722ms total)
T3A98 008:290 JLINK_SetBPEx(Addr = 0x080025E0, Type = 0xFFFFFFF2)  returns 0x00000008 (0000ms, 0722ms total)
T3A98 008:290 JLINK_Go() -- CPU_WriteMem(4 bytes @ 0xE0002000) -- CPU_ReadMem(4 bytes @ 0xE0001000) -- CPU_WriteMem(4 bytes @ 0xE0002008) (0002ms, 0724ms total)
T3A98 008:393 JLINK_IsHalted()  returns TRUE (0003ms, 0727ms total)
T3A98 008:396 JLINK_Halt()  returns 0x00 (0000ms, 0724ms total)
T3A98 008:396 JLINK_IsHalted()  returns TRUE (0000ms, 0724ms total)
T3A98 008:396 JLINK_IsHalted()  returns TRUE (0000ms, 0724ms total)
T3A98 008:396 JLINK_IsHalted()  returns TRUE (0000ms, 0724ms total)
T3A98 008:396 JLINK_ReadReg(R15 (PC))  returns 0x080025E0 (0000ms, 0724ms total)
T3A98 008:396 JLINK_ReadReg(XPSR)  returns 0x21000000 (0000ms, 0724ms total)
T3A98 008:396 JLINK_ClrBPEx(BPHandle = 0x00000008)  returns 0x00 (0000ms, 0724ms total)
T3A98 008:396 JLINK_ReadMemU32(0xE000ED30, 0x0001 Items, ...) -- CPU_ReadMem(4 bytes @ 0xE000ED30) - Data: 03 00 00 00  returns 0x01 (0000ms, 0724ms total)
T3A98 008:396 JLINK_ReadMemU32(0xE0001028, 0x0001 Items, ...) -- CPU_ReadMem(4 bytes @ 0xE0001028) - Data: 00 00 00 00  returns 0x01 (0001ms, 0725ms total)
T3A98 008:397 JLINK_ReadMemU32(0xE0001038, 0x0001 Items, ...) -- CPU_ReadMem(4 bytes @ 0xE0001038) - Data: 00 02 00 00  returns 0x01 (0000ms, 0725ms total)
T3A98 008:397 JLINK_ReadMemU32(0xE0001048, 0x0001 Items, ...) -- CPU_ReadMem(4 bytes @ 0xE0001048) - Data: 00 00 00 00  returns 0x01 (0001ms, 0726ms total)
T3A98 008:398 JLINK_ReadMemU32(0xE0001058, 0x0001 Items, ...) -- CPU_ReadMem(4 bytes @ 0xE0001058) - Data: 00 00 00 00  returns 0x01 (0000ms, 0726ms total)
T3A98 008:398 JLINK_ReadReg(R0)  returns 0x00000001 (0000ms, 0726ms total)
T3A98 008:398 JLINK_ReadReg(R1)  returns 0x40010C10 (0000ms, 0726ms total)
T3A98 008:398 JLINK_ReadReg(R2)  returns 0x00000001 (0000ms, 0726ms total)
T3A98 008:398 JLINK_ReadReg(R3)  returns 0x00000068 (0000ms, 0726ms total)
T3A98 008:398 JLINK_ReadReg(R4)  returns 0x08002854 (0000ms, 0726ms total)
T3A98 008:398 JLINK_ReadReg(R5)  returns 0x08002854 (0000ms, 0726ms total)
T3A98 008:398 JLINK_ReadReg(R6)  returns 0x00000000 (0000ms, 0726ms total)
T3A98 008:398 JLINK_ReadReg(R7)  returns 0x00000000 (0000ms, 0726ms total)
T3A98 008:398 JLINK_ReadReg(R8)  returns 0x00000000 (0000ms, 0726ms total)
T3A98 008:398 JLINK_ReadReg(R9)  returns 0x20000160 (0000ms, 0726ms total)
T3A98 008:398 JLINK_ReadReg(R10)  returns 0x00000000 (0000ms, 0726ms total)
T3A98 008:398 JLINK_ReadReg(R11)  returns 0x00000000 (0000ms, 0726ms total)
T3A98 008:398 JLINK_ReadReg(R12)  returns 0x00000C00 (0000ms, 0726ms total)
T3A98 008:398 JLINK_ReadReg(R13 (SP))  returns 0x20001130 (0000ms, 0726ms total)
T3A98 008:398 JLINK_ReadReg(R14)  returns 0x080024E9 (0000ms, 0726ms total)
T3A98 008:398 JLINK_ReadReg(R15 (PC))  returns 0x080025E0 (0001ms, 0727ms total)
T3A98 008:399 JLINK_ReadReg(XPSR)  returns 0x21000000 (0000ms, 0727ms total)
T3A98 008:399 JLINK_ReadReg(MSP)  returns 0x20001130 (0000ms, 0727ms total)
T3A98 008:399 JLINK_ReadReg(PSP)  returns 0x20001000 (0000ms, 0727ms total)
T3A98 008:399 JLINK_ReadReg(CFBP)  returns 0x00000000 (0000ms, 0727ms total)
T56A0 008:399 JLINK_ReadMem (0x20001134, 0x0020 Bytes, ...) -- CPU_ReadMem(128 bytes @ 0x20001100) -- Updating C cache (128 bytes @ 0x20001100) -- Read from C cache (32 bytes @ 0x20001134) - Data: 00 00 00 00 00 00 00 00 00 00 00 00 00 00 00 00 ...  returns 0x00 (0001ms, 0728ms total)
T56A0 008:400 JLINK_ReadMem (0x00000000, 0x0001 Bytes, ...) -- CPU_ReadMem(4 bytes @ 0x00000004) -- CPU_ReadMem(64 bytes @ 0x08000000) -- Updating C cache (64 bytes @ 0x08000000) -- Read from C cache (1 bytes @ 0x08000000) - Data: 48  returns 0x00 (0002ms, 0730ms total)
T56A0 008:405 JLINK_ReadMem (0x080025E0, 0x003C Bytes, ...) -- CPU_ReadMem(128 bytes @ 0x080025C0) -- Updating C cache (128 bytes @ 0x080025C0) -- Read from C cache (60 bytes @ 0x080025E0) - Data: 08 B9 00 BF FE E7 FE F7 BF FE 01 28 01 D1 00 BF ...  returns 0x00 (0001ms, 0731ms total)
T3A98 008:994 JLINK_Step() -- Read from C cache (2 bytes @ 0x080025E0) -- CPU_ReadMem(4 bytes @ 0xE0001004) -- Simulated  returns 0x00 (0000ms, 0731ms total)
T3A98 008:994 JLINK_ReadReg(R15 (PC))  returns 0x080025E6 (0000ms, 0731ms total)
T3A98 008:994 JLINK_ReadReg(XPSR)  returns 0x21000000 (0000ms, 0731ms total)
T3A98 008:995 JLINK_ReadReg(R0)  returns 0x00000001 (0000ms, 0731ms total)
T3A98 008:995 JLINK_ReadReg(R1)  returns 0x40010C10 (0000ms, 0731ms total)
T3A98 008:995 JLINK_ReadReg(R2)  returns 0x00000001 (0000ms, 0731ms total)
T3A98 008:995 JLINK_ReadReg(R3)  returns 0x00000068 (0000ms, 0731ms total)
T3A98 008:995 JLINK_ReadReg(R4)  returns 0x08002854 (0000ms, 0731ms total)
T3A98 008:995 JLINK_ReadReg(R5)  returns 0x08002854 (0000ms, 0731ms total)
T3A98 008:995 JLINK_ReadReg(R6)  returns 0x00000000 (0000ms, 0731ms total)
T3A98 008:995 JLINK_ReadReg(R7)  returns 0x00000000 (0000ms, 0731ms total)
T3A98 008:995 JLINK_ReadReg(R8)  returns 0x00000000 (0000ms, 0731ms total)
T3A98 008:995 JLINK_ReadReg(R9)  returns 0x20000160 (0000ms, 0731ms total)
T3A98 008:995 JLINK_ReadReg(R10)  returns 0x00000000 (0000ms, 0731ms total)
T3A98 008:995 JLINK_ReadReg(R11)  returns 0x00000000 (0000ms, 0731ms total)
T3A98 008:995 JLINK_ReadReg(R12)  returns 0x00000C00 (0000ms, 0731ms total)
T3A98 008:995 JLINK_ReadReg(R13 (SP))  returns 0x20001130 (0000ms, 0731ms total)
T3A98 008:995 JLINK_ReadReg(R14)  returns 0x080024E9 (0000ms, 0731ms total)
T3A98 008:995 JLINK_ReadReg(R15 (PC))  returns 0x080025E6 (0000ms, 0731ms total)
T3A98 008:995 JLINK_ReadReg(XPSR)  returns 0x21000000 (0000ms, 0731ms total)
T3A98 008:995 JLINK_ReadReg(MSP)  returns 0x20001130 (0000ms, 0731ms total)
T3A98 008:995 JLINK_ReadReg(PSP)  returns 0x20001000 (0000ms, 0731ms total)
T3A98 008:995 JLINK_ReadReg(CFBP)  returns 0x00000000 (0000ms, 0731ms total)
T56A0 008:995 JLINK_ReadMem (0x20001134, 0x0020 Bytes, ...) -- Read from C cache (32 bytes @ 0x20001134) - Data: 00 00 00 00 00 00 00 00 00 00 00 00 00 00 00 00 ...  returns 0x00 (0000ms, 0731ms total)
T56A0 008:995 JLINK_ReadMem (0x00000000, 0x0001 Bytes, ...) -- Read from C cache (1 bytes @ 0x08000000) - Data: 48  returns 0x00 (0000ms, 0731ms total)
T56A0 008:997 JLINK_ReadMem (0x080025E6, 0x0002 Bytes, ...) -- Read from C cache (2 bytes @ 0x080025E6) - Data: FE F7  returns 0x00 (0000ms, 0731ms total)
T56A0 008:997 JLINK_ReadMem (0x080025E8, 0x003C Bytes, ...) -- Read from C cache (60 bytes @ 0x080025E8) - Data: BF FE 01 28 01 D1 00 BF FE E7 FE F7 F1 FC 46 E0 ...  returns 0x00 (0000ms, 0731ms total)
T3A98 009:649 JLINK_SetBPEx(Addr = 0x080025EA, Type = 0xFFFFFFF2)  returns 0x00000009 (0000ms, 0731ms total)
